LTspice 24.0.12 for Windows
Circuit: * C:\Users\tolga\Downloads\Draft1.asc
Start Time: Fri Oct 24 08:50:35 2025
solver = Normal
Maximum thread count: 22
tnom = 27
temp = 27
method = modified trap
Direct Newton iteration for .op point succeeded.
Semiconductor Device Operating Points:
                        --- Diodes ---
Name:      d1
Model:      d
Id:      1.64e-02
Vd:      7.27e-01
Req:     1.58e+00
CAP:     0.00e+00

                        --- Bipolar Transistors ---
Name:       q1
Model:    2n3904
Ib:       4.59e-04
Ic:       5.49e-02
Vbe:      7.78e-01
Vbc:      6.58e-01
Vce:      1.19e-01
BetaDC:   1.20e+02
Gm:       1.90e+00
Rpi:      1.21e+02
Rx:       2.00e+01
Ro:       2.99e+01
Cbe:      7.17e-10
Cbc:      9.46e-09
Cjs:      0.00e+00
BetaAC:   2.29e+02
Cbx:      0.00e+00
Ft:       2.97e+07


Total elapsed time: 0.256 seconds.

